<Qucs Dataset 0.0.19>
<indep time 11>
  +0.00000000000000000000e+000
  +1.00000000000000002082e-003
  +2.00000000000000004163e-003
  +3.00000000000000006245e-003
  +4.00000000000000008327e-003
  +5.00000000000000010408e-003
  +6.00000000000000012490e-003
  +7.00000000000000014572e-003
  +8.00000000000000016653e-003
  +9.00000000000000105471e-003
  +1.00000000000000002082e-002
</indep>
<dep V2.It time>
  -1.37510019640428911593e-011
  -1.73603876155013480503e-010
  -1.78317949477731296288e-010
  -1.75012991003983055205e-010
  -1.79661650610915158194e-010
  -1.76356929492285507199e-010
  -1.80958469553367960993e-010
  -1.77656659486055929788e-010
  -1.82212553850842996518e-010
  -1.78913957189253065038e-010
  -1.83425353290353946016e-010
</dep>
<dep Pr1.It time>
  +1.14966972448620350660e-014
  +2.49765465395498176326e-012
  +3.41167477798359570951e-012
  +3.74790716047615632880e-012
  +3.87158425490119333723e-012
  +3.91707204594861553123e-012
  +3.93379373490134837018e-012
  +3.93993646709211078998e-012
  +3.94218475825670037156e-012
  +3.94300353156837878820e-012
  +3.94329364998409165612e-012
</dep>
<dep Pr2.It time>
  +1.35976687049952760814e-011
  +1.72736651704997274792e-010
  +1.76756652026235660073e-010
  +1.72769118691234263741e-010
  +1.76746487713530266347e-010
  +1.72781570396318838139e-010
  +1.76733824210583282267e-010
  +1.72793458108619177980e-010
  +1.76721348701934211312e-010
  +1.72805126757778905172e-010
  +1.76709103950047030782e-010
</dep>
<dep V1.It time>
  -3.75870609447641867693e-012
  +1.63659293497971096669e-011
  +1.66549327275370133818e-011
  +1.63737991826182468989e-011
  +1.66500612756139741725e-011
  +1.63780863086881780927e-011
  +1.66459404536271671050e-011
  +1.63832467770900206993e-011
  +1.66406824000376786280e-011
  +1.63883327145866045494e-011
  +1.66354919667582855598e-011
</dep>
<dep _net0.Vt time>
  +9.19999529763775396951e-009
  +5.20334670009929013850e-008
  +9.36778470897639470094e-008
  +1.34632338764887605346e-007
  +1.74909773843122983260e-007
  +2.14521545758058049527e-007
  +2.53478720567042057005e-007
  +2.91792082646331007889e-007
  +3.29472308934636171147e-007
  +3.66529825888497844721e-007
  +4.02974960418476740839e-007
</dep>
<dep VC.Vt time>
  +1.49999999962412946530e+001
  +1.50000000163659290564e+001
  +1.50000000166549334324e+001
  +1.50000000163737983172e+001
  +1.50000000166500608856e+001
  +1.50000000163780864426e+001
  +1.50000000166459397377e+001
  +1.50000000163832467592e+001
  +1.50000000166406817215e+001
  +1.50000000163883324689e+001
  +1.50000000166354912068e+001
</dep>
<dep VE.Vt time>
  +1.14966972448620343718e-011
  +2.49765465395498189897e-009
  +3.41167477798359573859e-009
  +3.74790716047615649036e-009
  +3.87158425490119287841e-009
  +3.91707204594861518226e-009
  +3.93379373490134765933e-009
  +3.93993646709211038931e-009
  +3.94218475825670014538e-009
  +3.94300353156837821951e-009
  +3.94329364998409110682e-009
</dep>
<dep _net2.Vt time>
  +0.00000000000000000000e+000
  +0.00000000000000000000e+000
  +0.00000000000000000000e+000
  +0.00000000000000000000e+000
  +0.00000000000000000000e+000
  +0.00000000000000000000e+000
  +0.00000000000000000000e+000
  +0.00000000000000000000e+000
  +0.00000000000000000000e+000
  +0.00000000000000000000e+000
  +0.00000000000000000000e+000
</dep>
<dep VB.Vt time>
  +9.19999529763775396951e-009
  +5.20334670009929013850e-008
  +9.36778470897639470094e-008
  +1.34632338764887605346e-007
  +1.74909773843122983260e-007
  +2.14521545758058049527e-007
  +2.53478720567042057005e-007
  +2.91792082646331007889e-007
  +3.29472308934636171147e-007
  +3.66529825888497844721e-007
  +4.02974960418476740839e-007
</dep>
<dep _net3.Vt time>
  +1.50000000000000000000e+001
  +1.50000000000000000000e+001
  +1.50000000000000000000e+001
  +1.50000000000000000000e+001
  +1.50000000000000000000e+001
  +1.50000000000000000000e+001
  +1.50000000000000000000e+001
  +1.50000000000000000000e+001
  +1.50000000000000000000e+001
  +1.50000000000000000000e+001
  +1.50000000000000000000e+001
</dep>
<dep Vload.Vt time>
  -3.59381243254103255325e-009
  +1.65304507721009130705e-008
  +1.68190960542560774549e-008
  +1.65376558810062523897e-008
  +1.68136429180495983182e-008
  +1.65414138168090696368e-008
  +1.68090044504881630516e-008
  +1.65460538447542715446e-008
  +1.68032394344194702107e-008
  +1.65506489286162961072e-008
  +1.67976230078248356392e-008
</dep>
<dep _net1.Vt time>
  -8.02956372409043941365e-027
  -2.44921270764475440472e-019
  -4.89842541528950880944e-019
  -7.34763812293426369564e-019
  -9.79685083057901761888e-019
  -1.22460635382237725051e-018
  -1.46952762458685273913e-018
  -1.71444889535132822775e-018
  -1.95937016611580352378e-018
  +4.90113592072072260904e-018
  -2.44921270764475450102e-018
</dep>
