<Qucs Dataset 0.0.19>
<indep time 11>
  +0.00000000000000000000e+000
  +1.00000000000000004792e-004
  +2.00000000000000009584e-004
  +3.00000000000000027929e-004
  +4.00000000000000019169e-004
  +5.00000000000000010408e-004
  +6.00000000000000055858e-004
  +6.99999999999999992888e-004
  +8.00000000000000038337e-004
  +8.99999999999999975367e-004
  +1.00000000000000002082e-003
</indep>
<dep V2.It time>
  -1.37510019640428911593e-011
  -9.93060967385997533388e-009
  -1.58749563054189784886e-008
  -1.57392030713660608862e-008
  -9.57526881013511585332e-009
  +2.62395913070492389329e-010
  +1.00161459539740216919e-008
  +1.59603883003233995046e-008
  +1.58245866436203720215e-008
  +9.66054689886494684281e-009
  -1.77314545905680168525e-010
</dep>
<dep Pr1.It time>
  +1.14966972448620350660e-014
  +1.39602040566451450955e-011
  +2.11836279769994824641e-011
  +1.90527215330012773675e-011
  +8.50210423546162008907e-012
  -6.32615170711211166082e-012
  -1.96679049064904991663e-011
  -2.63399630790750327251e-011
  -2.37160772391921377688e-011
  -1.27251756261252180742e-011
  +2.50381062492708165453e-012
</dep>
<dep Pr2.It time>
  +1.35976687049952760814e-011
  +1.42746499373105502057e-010
  +5.48119556429102080532e-011
  -5.36955050284076658855e-011
  -1.41292025889377444080e-010
  -1.74509455950270647550e-010
  -1.40696173960337585622e-010
  -5.28036051346462707399e-011
  +5.56061582278300663954e-011
  +1.43162183511029700781e-010
  +1.76430639065475965046e-010
</dep>
<dep V1.It time>
  -3.75870609447641867693e-012
  +1.34256887307546397724e-011
  +5.04678724408529407693e-012
  -5.29692924900101391324e-012
  -1.36587321609105764299e-011
  -1.68455298677071402612e-011
  -1.36403708198130727281e-011
  -5.26916869248600997067e-012
  +5.07075435439266758250e-012
  +1.34272168922671214709e-011
  +1.66089271428785476145e-011
</dep>
<dep _net0.Vt time>
  +9.19999529763775396951e-009
  +5.87271790467950856145e-004
  +9.49208660987673879389e-004
  +9.47573914582907944788e-004
  +5.82993650162263728036e-004
  -5.27318742722307543961e-006
  -5.92526986801169110522e-004
  -9.54455081711594191876e-004
  -9.52811568110544199021e-004
  -5.88222544941639237902e-004
  +5.30344104122112922607e-008
</dep>
<dep VC.Vt time>
  +1.49999999962412946530e+001
  +1.50000000134256890050e+001
  +1.50000000050467878765e+001
  +1.49999999947030708825e+001
  +1.49999999863412671885e+001
  +1.49999999831544705842e+001
  +1.49999999863596293892e+001
  +1.49999999947308317871e+001
  +1.50000000050707544830e+001
  +1.50000000134272166719e+001
  +1.50000000166089275666e+001
</dep>
<dep VE.Vt time>
  +1.14966972448620343718e-011
  +1.39602040566451441649e-008
  +2.11836279769994822314e-008
  +1.90527215330012779620e-008
  +8.50210423546161908094e-009
  -6.32615170711211156389e-009
  -1.96679049064904981065e-008
  -2.63399630790750298558e-008
  -2.37160772391921385701e-008
  -1.27251756261252153859e-008
  +2.50381062492708160283e-009
</dep>
<dep _net2.Vt time>
  +0.00000000000000000000e+000
  +0.00000000000000000000e+000
  +0.00000000000000000000e+000
  +0.00000000000000000000e+000
  +0.00000000000000000000e+000
  +0.00000000000000000000e+000
  +0.00000000000000000000e+000
  +0.00000000000000000000e+000
  +0.00000000000000000000e+000
  +0.00000000000000000000e+000
  +0.00000000000000000000e+000
</dep>
<dep VB.Vt time>
  +9.19999529763775396951e-009
  +5.87271790467950856145e-004
  +9.49208660987673879389e-004
  +9.47573914582907944788e-004
  +5.82993650162263728036e-004
  -5.27318742722307543961e-006
  -5.92526986801169110522e-004
  -9.54455081711594191876e-004
  -9.52811568110544199021e-004
  -5.88222544941639237902e-004
  +5.30344104122112922607e-008
</dep>
<dep _net3.Vt time>
  +1.50000000000000000000e+001
  +1.50000000000000000000e+001
  +1.50000000000000000000e+001
  +1.50000000000000000000e+001
  +1.50000000000000000000e+001
  +1.50000000000000000000e+001
  +1.50000000000000000000e+001
  +1.50000000000000000000e+001
  +1.50000000000000000000e+001
  +1.50000000000000000000e+001
  +1.50000000000000000000e+001
</dep>
<dep Vload.Vt time>
  -3.59381243254103255325e-009
  +1.34349772756489627135e-008
  +4.96158142175573413368e-009
  -5.37937265392141039655e-009
  -1.36422447730849549785e-008
  -1.66717442871833210205e-008
  -1.33110263133076611730e-008
  -4.84545646401574048312e-009
  +5.49159768006846071842e-009
  +1.37490159431152836333e-008
  +1.67733350949980652977e-008
</dep>
<dep _net1.Vt time>
  -8.02956372409043941365e-027
  +5.87785252292473111083e-004
  +9.51056516295153584958e-004
  +9.51056516295153584958e-004
  +5.87785252292473219503e-004
  +1.22460635382237720236e-019
  -5.87785252292473327923e-004
  -9.51056516295153584958e-004
  -9.51056516295153693379e-004
  -5.87785252292473327923e-004
  -2.44921270764475440472e-019
</dep>
